
T1204 000:309 SEGGER J-Link V4.96f Log File (0001ms, 0297ms total)
T1204 000:309 DLL Compiled: Feb  4 2015 14:13:39 (0001ms, 0297ms total)
T1204 000:309 Logging started @ 2015-03-01 23:10 (0001ms, 0297ms total)
T1204 000:310 JLINK_SetWarnOutHandler(...) (0000ms, 0297ms total)
T1204 000:310 JLINK_OpenEx(...)
Firmware: J-Link ARM V8 compiled Nov 28 2014 13:44:46
Hardware: V8.00
S/N: 20150219
Feature(s): RDI,FlashDL,FlashBP,JFlash,GDBFULL  returns O.K. (0280ms, 0577ms total)
T1204 000:590 JLINK_SetErrorOutHandler(...) (0000ms, 0577ms total)
T1204 000:590 JLINK_ExecCommand("ProjectFile = "G:\work\project\imu\stm32f4_mpu9250\Project\JLinkSettings.ini"", ...)  returns 0x00 (0000ms, 0577ms total)
T1204 000:590 JLINK_ExecCommand("Device = STM32F407VE", ...)Device "STM32F407VE" selected.  returns 0x00 (0000ms, 0578ms total)
T1204 000:591 JLINK_ExecCommand("DisableConnectionTimeout", ...)  returns 0x01 (0000ms, 0579ms total)
T1204 000:592 JLINK_GetHardwareVersion()  returns 0x13880 (0000ms, 0579ms total)
T1204 000:592 JLINK_GetDLLVersion()  returns 49606 (0000ms, 0579ms total)
T1204 000:592 JLINK_GetFirmwareString(...) (0000ms, 0579ms total)
T1204 000:592 JLINK_GetDLLVersion()  returns 49606 (0000ms, 0579ms total)
T1204 000:592 JLINK_GetCompileDateTime() (0000ms, 0579ms total)
T1204 000:592 JLINK_GetFirmwareString(...) (0000ms, 0579ms total)
T1204 000:593 JLINK_GetHardwareVersion()  returns 0x13880 (0000ms, 0579ms total)
T1204 000:593 JLINK_TIF_Select(JLINKARM_TIF_JTAG)  returns 0x00 (0009ms, 0588ms total)
T1204 000:602 JLINK_SetSpeed(2000) (0001ms, 0589ms total)
T1204 000:603 JLINK_GetIdData(...) >0x2F8 JTAG>TotalIRLen = 9, IRPrint = 0x0011 >0x30 JTAG> >0x210 JTAG> >0x40 JTAG> >0x40 JTAG> >0x40 JTAG> >0x30 JTAG> >0x40 JTAG> >0x40 JTAG> >0x40 JTAG> >0x40 JTAG> >0x40 JTAG> >0x40 JTAG> >0x40 JTAG> >0x40 JTAG> >0x40 JTAG> >0x40 JTAG> >0x40 JTAG> >0x2F8 JTAG>TotalIRLen = 9, IRPrint = 0x0011 >0x30 JTAG> >0x210 JTAG> >0x70 JTAG> >0x40 JTAG> >0x40 JTAG> >0x40 JTAG> >0x50 JTAG> >0x80 JTAG> >0x40 JTAG> >0x30 JTAG> >0x40 JTAG> >0x40 JTAG> >0x30 JTAG> >0x40 JTAG>
 >0x50 JTAG>Found Cortex-M4 r0p1, Little endian. -- CPU_WriteMem(4 bytes @ 0xE0002000) -- CPU_ReadMem(4 bytes @ 0xE000EDF0) -- CPU_ReadMem(4 bytes @ 0xE0002000)FPUnit: 6 code (BP) slots and 2 literal slots -- CPU_ReadMem(4 bytes @ 0xE000EDFC) -- CPU_ReadMem(4 bytes @ 0xE0001000) -- CPU_WriteMem(4 bytes @ 0xE0001000) -- CPU_ReadMem(4 bytes @ 0xE000ED88) -- CPU_WriteMem(4 bytes @ 0xE000ED88) -- CPU_ReadMem(4 bytes @ 0xE000ED88) -- CPU_WriteMem(4 bytes @ 0xE000ED88) -- CPU_ReadMem(4 bytes @ 0xE00FF010)
TPIU fitted. -- CPU_ReadMem(4 bytes @ 0xE00FF014)ETM fitted. -- CPU_ReadMem(4 bytes @ 0xE00FF018) ScanLen=9 NumDevices=2 aId[0]=0x4BA00477 aIrRead[0]=0 aScanLen[0]=0 aScanRead[0]=0 (0116ms, 0705ms total)
T1204 000:719 JLINK_JTAG_GetDeviceID(DeviceIndex = 0)  returns 0x4BA00477 (0000ms, 0705ms total)
T1204 000:719 JLINK_JTAG_GetDeviceInfo(DeviceIndex = 0)  returns 0x00 (0000ms, 0705ms total)
T1204 000:719 JLINK_JTAG_GetDeviceID(DeviceIndex = 1)  returns 0x6413041 (0000ms, 0705ms total)
T1204 000:719 JLINK_JTAG_GetDeviceInfo(DeviceIndex = 1)  returns 0x00 (0000ms, 0705ms total)
T1204 000:719 JLINK_GetDeviceFamily()  returns 14 (0000ms, 0705ms total)
T1204 000:720 JLINK_ReadMem (0xE00FFFF0, 0x0010 Bytes, ...) -- CPU is running -- CPU_ReadMem(16 bytes @ 0xE00FFFF0) - Data: 0D 00 00 00 10 00 00 00 05 00 00 00 B1 00 00 00  returns 0x00 (0002ms, 0707ms total)
T1204 000:722 JLINK_ReadMem (0xE00FFFD0, 0x0020 Bytes, ...) -- CPU is running -- CPU_ReadMem(32 bytes @ 0xE00FFFD0) - Data: 00 00 00 00 00 00 00 00 00 00 00 00 00 00 00 00 ...  returns 0x00 (0002ms, 0709ms total)
T1204 000:724 JLINK_ReadMem (0xE00FF000, 0x0018 Bytes, ...) -- CPU is running -- CPU_ReadMem(24 bytes @ 0xE00FF000) - Data: 03 F0 F0 FF 03 20 F0 FF 03 30 F0 FF 03 10 F0 FF ...  returns 0x00 (0002ms, 0711ms total)
T1204 000:726 JLINK_ReadMemU32(0xE000ED00, 0x0001 Items, ...) -- CPU is running -- CPU_ReadMem(4 bytes @ 0xE000ED00) - Data: 41 C2 0F 41  returns 0x01 (0003ms, 0714ms total)
T1204 000:729 JLINK_ReadMemU32(0xE000EF40, 0x0001 Items, ...) -- CPU is running -- CPU_ReadMem(4 bytes @ 0xE000EF40) - Data: 21 00 11 10  returns 0x01 (0002ms, 0716ms total)
T1204 000:731 JLINK_ReadMemU32(0xE000EF44, 0x0001 Items, ...) -- CPU is running -- CPU_ReadMem(4 bytes @ 0xE000EF44) - Data: 11 00 00 11  returns 0x01 (0002ms, 0718ms total)
T1204 000:733 JLINK_SetResetType(JLINKARM_RESET_TYPE_NORMAL)  returns JLINKARM_RESET_TYPE_NORMAL (0000ms, 0718ms total)
T1204 000:733 JLINK_Reset() -- CPU is running -- CPU_WriteMem(4 bytes @ 0xE000EDF0) -- CPU is running -- CPU_WriteMem(4 bytes @ 0xE000EDFC) -- CPU is running -- CPU_WriteMem(4 bytes @ 0xE000ED0C) -- CPU is running -- CPU_ReadMem(4 bytes @ 0xE000EDF0) -- CPU is running -- CPU_ReadMem(4 bytes @ 0xE000EDF0) -- CPU is running -- CPU_WriteMem(4 bytes @ 0xE000EDF0) -- CPU is running -- CPU_WriteMem(4 bytes @ 0xE000EDFC) -- CPU is running -- CPU_ReadMem(4 bytes @ 0xE000EDF0) >0x80 JTAG> >0x40 JTAG> >0x30 JTAG>
 >0x40 JTAG> >0x50 JTAG> >0x40 JTAG> -- CPU_WriteMem(4 bytes @ 0xE000EDFC) -- CPU_WriteMem(4 bytes @ 0xE0001028) -- CPU_WriteMem(4 bytes @ 0xE0001038) -- CPU_WriteMem(4 bytes @ 0xE0001048) -- CPU_WriteMem(4 bytes @ 0xE0001058) -- CPU_WriteMem(4 bytes @ 0xE0002000) -- CPU_ReadMem(4 bytes @ 0xE000EDFC) -- CPU_ReadMem(4 bytes @ 0xE0001000) (0058ms, 0776ms total)
T1204 000:792 JLINK_ReadReg(R15 (PC))  returns 0x08000228 (0000ms, 0776ms total)
T1204 000:792 JLINK_ReadReg(XPSR)  returns 0x01000000 (0000ms, 0776ms total)
T1204 000:792 JLINK_Halt()  returns 0x00 (0000ms, 0776ms total)
T1204 000:792 JLINK_IsHalted()  returns TRUE (0000ms, 0776ms total)
T1204 000:792 JLINK_ReadMemU32(0xE000EDF0, 0x0001 Items, ...) -- CPU_ReadMem(4 bytes @ 0xE000EDF0) - Data: 03 00 03 00  returns 0x01 (0002ms, 0778ms total)
T1204 000:794 JLINK_WriteU32(0xE000EDF0, 0xA05F0003) -- CPU_WriteMem(4 bytes @ 0xE000EDF0)  returns 0x00 (0002ms, 0780ms total)
T1204 000:796 JLINK_WriteU32(0xE000EDFC, 0x01000000) -- CPU_WriteMem(4 bytes @ 0xE000EDFC)  returns 0x00 (0002ms, 0782ms total)
T1204 000:799 JLINK_GetHWStatus(...)  returns 0x00 (0002ms, 0784ms total)
T1204 000:801 JLINK_GetNumBPUnits(Type = 0xFFFFFF00)  returns 0x06 (0000ms, 0784ms total)
T1204 000:801 JLINK_GetNumBPUnits(Type = 0xF0)  returns 0x2000 (0000ms, 0784ms total)
T1204 000:801 JLINK_GetNumWPUnits()  returns 0x04 (0000ms, 0784ms total)
T1204 000:801 JLINK_GetSpeed()  returns 0x7D0 (0000ms, 0784ms total)
T1204 000:801 JLINK_ReadMemU32(0xE000E004, 0x0001 Items, ...) -- CPU_ReadMem(4 bytes @ 0xE000E004) - Data: 02 00 00 00  returns 0x01 (0002ms, 0786ms total)
T1204 000:803 JLINK_ReadMemU32(0xE000E004, 0x0001 Items, ...) -- CPU_ReadMem(4 bytes @ 0xE000E004) - Data: 02 00 00 00  returns 0x01 (0001ms, 0787ms total)
T1204 000:804 JLINK_WriteMem(0xE0001000, 0x001C Bytes, ...) - Data: 01 00 00 00 00 00 00 00 00 00 00 00 00 00 00 00 ... -- CPU_WriteMem(28 bytes @ 0xE0001000)  returns 0x1C (0003ms, 0790ms total)
T1204 000:807 JLINK_ReadMem (0xE0001000, 0x001C Bytes, ...) -- CPU_ReadMem(28 bytes @ 0xE0001000) - Data: 01 00 00 40 00 00 00 00 00 00 00 00 00 00 00 00 ...  returns 0x00 (0002ms, 0792ms total)
T1204 000:809 JLINK_ReadReg(R15 (PC))  returns 0x08000228 (0000ms, 0792ms total)
T1204 000:809 JLINK_ReadReg(XPSR)  returns 0x01000000 (0000ms, 0792ms total)
T1204 000:853 JLINK_ReadMem (0x08000000, 0x1000 Bytes, ...) -- CPU_ReadMem(4096 bytes @ 0x08000000) -- Updating C cache (4096 bytes @ 0x08000000) -- Read from C cache (4096 bytes @ 0x08000000) - Data: 88 46 00 20 29 02 00 08 31 02 00 08 33 02 00 08 ...  returns 0x00 (0026ms, 0818ms total)
T1204 000:880 JLINK_ReadMem (0x08001000, 0x1000 Bytes, ...) -- CPU_ReadMem(4096 bytes @ 0x08001000) -- Updating C cache (4096 bytes @ 0x08001000) -- Read from C cache (4096 bytes @ 0x08001000) - Data: 1D 0E 0B 4B 00 F0 0F 04 24 1F 1D 55 03 E0 13 07 ...  returns 0x00 (0026ms, 0844ms total)
T1204 000:906 JLINK_ReadMem (0x08002000, 0x1000 Bytes, ...) -- CPU_ReadMem(4096 bytes @ 0x08002000) -- Updating C cache (4096 bytes @ 0x08002000) -- Read from C cache (4096 bytes @ 0x08002000) - Data: 48 9A B5 EE C0 AA F1 EE 10 FA 03 D2 B1 EE 49 0A ...  returns 0x00 (0026ms, 0870ms total)
T1204 000:934 JLINK_ReadMem (0x08003000, 0x1000 Bytes, ...) -- CPU_ReadMem(4096 bytes @ 0x08003000) -- Updating C cache (4096 bytes @ 0x08003000) -- Read from C cache (4096 bytes @ 0x08003000) - Data: 8C 07 24 0F 00 FA 04 F4 23 43 02 4C 8D 10 44 F8 ...  returns 0x00 (0026ms, 0896ms total)
T1204 000:962 JLINK_ReadMem (0x08004000, 0x1000 Bytes, ...) -- CPU_ReadMem(4096 bytes @ 0x08004000) -- Updating C cache (4096 bytes @ 0x08004000) -- Read from C cache (4096 bytes @ 0x08004000) - Data: B8 EE 40 0A DF ED 5B 0A 80 EE 20 8A 01 A8 00 F0 ...  returns 0x00 (0026ms, 0922ms total)
T1204 000:990 JLINK_ReadMem (0x08005000, 0x1000 Bytes, ...) -- CPU_ReadMem(4096 bytes @ 0x08005000) -- Updating C cache (4096 bytes @ 0x08005000) -- Read from C cache (4096 bytes @ 0x08005000) - Data: 89 E7 03 20 FC F7 18 F8 11 48 90 F8 22 00 10 B1 ...  returns 0x00 (0026ms, 0948ms total)
T1204 001:018 JLINK_ReadMem (0x08006000, 0x0800 Bytes, ...) -- CPU_ReadMem(2048 bytes @ 0x08006000) -- Updating C cache (2048 bytes @ 0x08006000) -- Read from C cache (2048 bytes @ 0x08006000) - Data: A8 84 D9 C7 DF F8 F8 83 C5 DA DF 69 DF 83 C1 D8 ...  returns 0x00 (0017ms, 0965ms total)
T1204 001:088 JLINK_SetResetType(JLINKARM_RESET_TYPE_NORMAL)  returns JLINKARM_RESET_TYPE_NORMAL (0000ms, 0965ms total)
T1204 001:088 JLINK_Reset() -- CPU_WriteMem(4 bytes @ 0xE000EDF0) -- CPU_WriteMem(4 bytes @ 0xE000EDFC) -- CPU_WriteMem(4 bytes @ 0xE000ED0C) -- CPU_ReadMem(4 bytes @ 0xE000EDF0) -- CPU_ReadMem(4 bytes @ 0xE000EDF0) -- CPU_WriteMem(4 bytes @ 0xE000EDF0) -- CPU_WriteMem(4 bytes @ 0xE000EDFC) -- CPU is running -- CPU_ReadMem(4 bytes @ 0xE000EDF0) >0x80 JTAG> >0x40 JTAG> >0x30 JTAG> >0x40 JTAG> >0x50 JTAG> >0x40 JTAG> -- CPU_WriteMem(4 bytes @ 0xE000EDFC) -- CPU_WriteMem(4 bytes @ 0xE0001028)
 -- CPU_WriteMem(4 bytes @ 0xE0001038) -- CPU_WriteMem(4 bytes @ 0xE0001048) -- CPU_WriteMem(4 bytes @ 0xE0001058) -- CPU_WriteMem(4 bytes @ 0xE0002000) -- CPU_ReadMem(4 bytes @ 0xE000EDFC) -- CPU_ReadMem(4 bytes @ 0xE0001000) (0057ms, 1022ms total)
T1204 001:145 JLINK_ReadReg(R15 (PC))  returns 0x08000228 (0000ms, 1022ms total)
T1204 001:145 JLINK_ReadReg(XPSR)  returns 0x01000000 (0000ms, 1022ms total)
T1204 001:257 JLINK_ReadMem (0x08000188, 0x003C Bytes, ...) -- CPU_ReadMem(128 bytes @ 0x08000180) -- Updating C cache (128 bytes @ 0x08000180) -- Read from C cache (60 bytes @ 0x08000188) - Data: 00 F0 02 F8 00 F0 3C F8 0A A0 90 E8 00 0C 82 44 ...  returns 0x00 (0003ms, 1025ms total)
T1204 001:260 JLINK_ReadMem (0x080001C4, 0x003C Bytes, ...) -- Read from C cache (60 bytes @ 0x080001C4) - Data: 10 3A 24 BF 78 C8 78 C1 FA D8 52 07 24 BF 30 C8 ...  returns 0x00 (0000ms, 1025ms total)
T1204 001:260 JLINK_ReadMem (0x08000200, 0x003C Bytes, ...) -- CPU_ReadMem(64 bytes @ 0x08000200) -- Updating C cache (64 bytes @ 0x08000200) -- Read from C cache (60 bytes @ 0x08000200) - Data: 0F FB 1F BD 10 B5 10 BD 00 F0 FA FC 11 46 FF F7 ...  returns 0x00 (0002ms, 1027ms total)
T1050 001:646 JLINK_SetBPEx(Addr = 0x08004234, Type = 0xFFFFFFF2)  returns 0x00000001 (0000ms, 1027ms total)
T1050 001:646 JLINK_Go() -- CPU_WriteMem(4 bytes @ 0xE0002008) -- CPU_WriteMem(4 bytes @ 0xE000200C) -- CPU_WriteMem(4 bytes @ 0xE0002010) -- CPU_WriteMem(4 bytes @ 0xE0002014) -- CPU_WriteMem(4 bytes @ 0xE0002018) -- CPU_WriteMem(4 bytes @ 0xE000201C) -- CPU_WriteMem(4 bytes @ 0xE0001004) (0011ms, 1038ms total)
T1050 001:757 JLINK_IsHalted()  returns TRUE (0006ms, 1044ms total)
T1050 001:763 JLINK_Halt()  returns 0x00 (0000ms, 1038ms total)
T1050 001:763 JLINK_IsHalted()  returns TRUE (0000ms, 1038ms total)
T1050 001:763 JLINK_IsHalted()  returns TRUE (0000ms, 1038ms total)
T1050 001:763 JLINK_IsHalted()  returns TRUE (0000ms, 1038ms total)
T1050 001:763 JLINK_ReadReg(R15 (PC))  returns 0x08004234 (0000ms, 1038ms total)
T1050 001:763 JLINK_ReadReg(XPSR)  returns 0x21000000 (0000ms, 1038ms total)
T1050 001:763 JLINK_ClrBPEx(BPHandle = 0x00000001)  returns 0x00 (0000ms, 1038ms total)
T1050 001:763 JLINK_ReadMemU32(0xE000ED30, 0x0001 Items, ...) -- CPU_ReadMem(4 bytes @ 0xE000ED30) - Data: 03 00 00 00  returns 0x01 (0002ms, 1040ms total)
T1050 001:765 JLINK_ReadMemU32(0xE0001028, 0x0001 Items, ...) -- CPU_ReadMem(4 bytes @ 0xE0001028) - Data: 00 00 00 00  returns 0x01 (0003ms, 1043ms total)
T1050 001:768 JLINK_ReadMemU32(0xE0001038, 0x0001 Items, ...) -- CPU_ReadMem(4 bytes @ 0xE0001038) - Data: 00 02 00 00  returns 0x01 (0002ms, 1045ms total)
T1050 001:770 JLINK_ReadMemU32(0xE0001048, 0x0001 Items, ...) -- CPU_ReadMem(4 bytes @ 0xE0001048) - Data: 00 00 00 00  returns 0x01 (0002ms, 1047ms total)
T1050 001:772 JLINK_ReadMemU32(0xE0001058, 0x0001 Items, ...) -- CPU_ReadMem(4 bytes @ 0xE0001058) - Data: 00 00 00 00  returns 0x01 (0003ms, 1050ms total)
T1050 001:775 JLINK_ReadReg(R0)  returns 0x20000488 (0000ms, 1050ms total)
T1050 001:775 JLINK_ReadReg(R1)  returns 0x20000688 (0000ms, 1050ms total)
T1050 001:775 JLINK_ReadReg(R2)  returns 0x20000688 (0000ms, 1050ms total)
T1050 001:775 JLINK_ReadReg(R3)  returns 0x20000688 (0000ms, 1050ms total)
T1050 001:775 JLINK_ReadReg(R4)  returns 0x00000000 (0000ms, 1050ms total)
T1050 001:775 JLINK_ReadReg(R5)  returns 0x20000424 (0000ms, 1050ms total)
T1050 001:775 JLINK_ReadReg(R6)  returns 0x00000000 (0000ms, 1050ms total)
T1050 001:775 JLINK_ReadReg(R7)  returns 0x00000000 (0000ms, 1050ms total)
T1050 001:775 JLINK_ReadReg(R8)  returns 0x00000000 (0000ms, 1050ms total)
T1050 001:775 JLINK_ReadReg(R9)  returns 0x00000000 (0000ms, 1050ms total)
T1050 001:775 JLINK_ReadReg(R10)  returns 0x080066EC (0000ms, 1050ms total)
T1050 001:775 JLINK_ReadReg(R11)  returns 0x00000000 (0000ms, 1050ms total)
T1050 001:775 JLINK_ReadReg(R12)  returns 0x20000464 (0000ms, 1050ms total)
T1050 001:775 JLINK_ReadReg(R13 (SP))  returns 0x20004688 (0000ms, 1050ms total)
T1050 001:775 JLINK_ReadReg(R14)  returns 0x08000217 (0000ms, 1050ms total)
T1050 001:775 JLINK_ReadReg(R15 (PC))  returns 0x08004234 (0000ms, 1050ms total)
T1050 001:775 JLINK_ReadReg(XPSR)  returns 0x21000000 (0000ms, 1050ms total)
T1050 001:775 JLINK_ReadReg(MSP)  returns 0x20004688 (0000ms, 1050ms total)
T1050 001:775 JLINK_ReadReg(PSP)  returns 0x00000000 (0000ms, 1050ms total)
T1050 001:775 JLINK_ReadReg(CFBP)  returns 0x04000000 (0000ms, 1050ms total)
T1050 001:775 JLINK_ReadReg(FPSCR)  returns 0x03000000 (0010ms, 1060ms total)
T1050 001:785 JLINK_ReadReg(FPS0)  returns 0x00000000 (0000ms, 1060ms total)
T1050 001:785 JLINK_ReadReg(FPS1)  returns 0x00000000 (0000ms, 1060ms total)
T1050 001:785 JLINK_ReadReg(FPS2)  returns 0x00000000 (0000ms, 1060ms total)
T1050 001:785 JLINK_ReadReg(FPS3)  returns 0x00000000 (0000ms, 1060ms total)
T1050 001:785 JLINK_ReadReg(FPS4)  returns 0x00000000 (0000ms, 1060ms total)
T1050 001:785 JLINK_ReadReg(FPS5)  returns 0x00000000 (0000ms, 1060ms total)
T1050 001:785 JLINK_ReadReg(FPS6)  returns 0x00000000 (0000ms, 1060ms total)
T1050 001:785 JLINK_ReadReg(FPS7)  returns 0x00000000 (0000ms, 1060ms total)
T1050 001:785 JLINK_ReadReg(FPS8)  returns 0x00000000 (0000ms, 1060ms total)
T1050 001:785 JLINK_ReadReg(FPS9)  returns 0x00000000 (0000ms, 1060ms total)
T1050 001:785 JLINK_ReadReg(FPS10)  returns 0x00000000 (0000ms, 1060ms total)
T1050 001:785 JLINK_ReadReg(FPS11)  returns 0x00000000 (0000ms, 1060ms total)
T1050 001:785 JLINK_ReadReg(FPS12)  returns 0x00000000 (0000ms, 1060ms total)
T1050 001:785 JLINK_ReadReg(FPS13)  returns 0x00000000 (0000ms, 1060ms total)
T1050 001:785 JLINK_ReadReg(FPS14)  returns 0x00000000 (0000ms, 1060ms total)
T1050 001:785 JLINK_ReadReg(FPS15)  returns 0x00000000 (0001ms, 1061ms total)
T1050 001:786 JLINK_ReadReg(FPS16)  returns 0x00000000 (0000ms, 1061ms total)
T1050 001:786 JLINK_ReadReg(FPS17)  returns 0x00000000 (0000ms, 1061ms total)
T1050 001:786 JLINK_ReadReg(FPS18)  returns 0x00000000 (0000ms, 1061ms total)
T1050 001:786 JLINK_ReadReg(FPS19)  returns 0x00000000 (0000ms, 1061ms total)
T1050 001:786 JLINK_ReadReg(FPS20)  returns 0x00000000 (0000ms, 1061ms total)
T1050 001:786 JLINK_ReadReg(FPS31)  returns 0x00000000 (0000ms, 1061ms total)
T1050 001:786 JLINK_ReadReg(FPS7)  returns 0x00000000 (0000ms, 1061ms total)
T1050 001:786 JLINK_ReadReg(FPS8)  returns 0x00000000 (0000ms, 1061ms total)
T1050 001:786 JLINK_ReadReg(FPS9)  returns 0x00000000 (0000ms, 1061ms total)
T1050 001:786 JLINK_ReadReg(FPS10)  returns 0x00000000 (0000ms, 1061ms total)
T1050 001:786 JLINK_ReadReg(FPS11)  returns 0x00000000 (0000ms, 1061ms total)
T1050 001:786 JLINK_ReadReg(FPS12)  returns 0x00000000 (0000ms, 1061ms total)
T1050 001:786 JLINK_ReadReg(FPS13)  returns 0x00000000 (0000ms, 1061ms total)
T1050 001:786 JLINK_ReadReg(FPS14)  returns 0x00000000 (0000ms, 1061ms total)
T1050 001:786 JLINK_ReadReg(FPS15)  returns 0x00000000 (0000ms, 1061ms total)
T1050 001:786 JLINK_ReadReg(FPS16)  returns 0x00000000 (0000ms, 1061ms total)
T1204 001:787 JLINK_ReadMem (0x20004644, 0x0001 Bytes, ...) -- CPU_ReadMem(64 bytes @ 0x20004640) -- Updating C cache (64 bytes @ 0x20004640) -- Read from C cache (1 bytes @ 0x20004644) - Data: 00  returns 0x00 (0002ms, 1063ms total)
T1204 001:789 JLINK_ReadMem (0x20004640, 0x0002 Bytes, ...) -- Read from C cache (2 bytes @ 0x20004640) - Data: 00 00  returns 0x00 (0000ms, 1063ms total)
T1204 001:789 JLINK_ReadMem (0x2000463C, 0x0002 Bytes, ...) -- CPU_ReadMem(64 bytes @ 0x20004600) -- Updating C cache (64 bytes @ 0x20004600) -- Read from C cache (2 bytes @ 0x2000463C) - Data: 00 00  returns 0x00 (0002ms, 1065ms total)
T1204 001:791 JLINK_ReadMem (0x200045EC, 0x0002 Bytes, ...) -- CPU_ReadMem(64 bytes @ 0x200045C0) -- Updating C cache (64 bytes @ 0x200045C0) -- Read from C cache (2 bytes @ 0x200045EC) - Data: 00 00  returns 0x00 (0002ms, 1067ms total)
T1204 001:793 JLINK_ReadMem (0x200045E8, 0x0001 Bytes, ...) -- Read from C cache (1 bytes @ 0x200045E8) - Data: 00  returns 0x00 (0001ms, 1068ms total)
T1204 001:794 JLINK_ReadMem (0x200045D4, 0x0004 Bytes, ...) -- Read from C cache (4 bytes @ 0x200045D4) - Data: 00 00 00 00  returns 0x00 (0000ms, 1068ms total)
T1204 001:794 JLINK_ReadMem (0x20002E24, 0x0004 Bytes, ...) -- CPU_ReadMem(64 bytes @ 0x20002E00) -- Updating C cache (64 bytes @ 0x20002E00) -- Read from C cache (4 bytes @ 0x20002E24) - Data: 00 00 00 00  returns 0x00 (0002ms, 1070ms total)
T1204 001:796 JLINK_ReadMem (0x00000000, 0x0002 Bytes, ...) -- CPU_ReadMem(4 bytes @ 0x00000004) -- CPU_ReadMem(64 bytes @ 0x08000000) -- Updating C cache (64 bytes @ 0x08000000) -- Read from C cache (2 bytes @ 0x08000000) - Data: 88 46  returns 0x00 (0004ms, 1074ms total)
T1204 001:802 JLINK_ReadMemU32(0xE0001004, 0x0001 Items, ...) -- CPU_ReadMem(4 bytes @ 0xE0001004) - Data: 98 47 00 00  returns 0x01 (0001ms, 1075ms total)
T1204 001:810 JLINK_ReadMem (0x08004134, 0x003C Bytes, ...) -- CPU_ReadMem(128 bytes @ 0x08004100) -- Updating C cache (128 bytes @ 0x08004100) -- Read from C cache (60 bytes @ 0x08004134) - Data: 01 F0 D0 F9 10 B1 4F F0 FF 30 59 E7 16 F0 04 0F ...  returns 0x00 (0003ms, 1078ms total)
T1204 001:813 JLINK_ReadMem (0x08004170, 0x003C Bytes, ...) -- CPU_ReadMem(64 bytes @ 0x08004180) -- Updating C cache (64 bytes @ 0x08004180) -- Read from C cache (60 bytes @ 0x08004170) - Data: 00 20 3F E7 00 00 48 43 00 00 80 46 00 00 40 46 ...  returns 0x00 (0002ms, 1080ms total)
T1204 001:815 JLINK_ReadMem (0x080041AC, 0x003C Bytes, ...) -- CPU_ReadMem(64 bytes @ 0x080041C0) -- Updating C cache (64 bytes @ 0x080041C0) -- Read from C cache (60 bytes @ 0x080041AC) - Data: 8D F8 01 00 6A 46 02 21 4F F4 EF 70 01 F0 8E F9 ...  returns 0x00 (0003ms, 1083ms total)
T1204 001:818 JLINK_ReadMem (0x080041E8, 0x003C Bytes, ...) -- CPU_ReadMem(64 bytes @ 0x08004200) -- Updating C cache (64 bytes @ 0x08004200) -- Read from C cache (60 bytes @ 0x080041E8) - Data: 00 20 00 2A 01 DD 00 20 1E E0 91 F9 00 20 00 2A ...  returns 0x00 (0002ms, 1085ms total)
T1204 001:820 JLINK_ReadMem (0x08004224, 0x003C Bytes, ...) -- CPU_ReadMem(64 bytes @ 0x08004240) -- Updating C cache (64 bytes @ 0x08004240) -- Read from C cache (60 bytes @ 0x08004224) - Data: 02 20 00 2A 01 DA 06 20 00 E0 07 20 70 47 00 00 ...  returns 0x00 (0002ms, 1087ms total)
T1050 002:001 JLINK_Go() -- CPU_WriteMem(4 bytes @ 0xE0002008) (0003ms, 1090ms total)
T1050 002:104 JLINK_IsHalted()  returns FALSE (0003ms, 1093ms total)
T1050 002:207 JLINK_IsHalted()  returns FALSE (0001ms, 1091ms total)
T1050 002:308 JLINK_IsHalted()  returns FALSE (0002ms, 1092ms total)
T1050 002:410 JLINK_IsHalted()  returns FALSE (0001ms, 1091ms total)
T1050 002:511 JLINK_IsHalted()  returns FALSE (0002ms, 1092ms total)
T1050 002:613 JLINK_IsHalted()  returns FALSE (0001ms, 1091ms total)
T1050 002:714 JLINK_IsHalted()  returns FALSE (0002ms, 1092ms total)
T1050 002:816 JLINK_IsHalted()  returns FALSE (0002ms, 1092ms total)
T1050 002:918 JLINK_IsHalted()  returns FALSE (0001ms, 1091ms total)
T1050 003:019 JLINK_IsHalted()  returns FALSE (0003ms, 1093ms total)
T1050 003:122 JLINK_IsHalted()  returns FALSE (0003ms, 1093ms total)
T1050 003:225 JLINK_IsHalted()  returns FALSE (0001ms, 1091ms total)
T1050 003:326 JLINK_IsHalted()  returns FALSE (0001ms, 1091ms total)
T1050 003:427 JLINK_IsHalted()  returns FALSE (0002ms, 1092ms total)
T1050 003:529 JLINK_IsHalted()  returns FALSE (0002ms, 1092ms total)
T1050 003:631 JLINK_IsHalted()  returns FALSE (0001ms, 1091ms total)
T1050 003:732 JLINK_IsHalted()  returns FALSE (0002ms, 1092ms total)
T1050 003:834 JLINK_IsHalted()  returns FALSE (0002ms, 1092ms total)
T1050 003:936 JLINK_IsHalted()  returns FALSE (0002ms, 1092ms total)
T1050 004:038 JLINK_IsHalted()  returns FALSE (0001ms, 1091ms total)
T1050 004:139 JLINK_IsHalted()  returns FALSE (0003ms, 1093ms total)
T1050 004:242 JLINK_IsHalted()  returns FALSE (0001ms, 1091ms total)
T1050 004:343 JLINK_IsHalted()  returns FALSE (0002ms, 1092ms total)
T1050 004:445 JLINK_IsHalted()  returns FALSE (0002ms, 1092ms total)
T1050 004:547 JLINK_IsHalted()  returns FALSE (0001ms, 1091ms total)
T1050 004:648 JLINK_IsHalted()  returns FALSE (0002ms, 1092ms total)
T1050 004:750 JLINK_IsHalted()  returns FALSE (0002ms, 1092ms total)
T1050 004:852 JLINK_IsHalted()  returns FALSE (0001ms, 1091ms total)
T1050 004:953 JLINK_IsHalted()  returns FALSE (0002ms, 1092ms total)
T1050 005:055 JLINK_IsHalted()  returns FALSE (0001ms, 1091ms total)
T1050 005:156 JLINK_IsHalted()  returns FALSE (0003ms, 1093ms total)
T1050 005:259 JLINK_IsHalted()  returns FALSE (0002ms, 1092ms total)
T1050 005:361 JLINK_IsHalted()  returns FALSE (0001ms, 1091ms total)
T1050 005:462 JLINK_IsHalted()  returns FALSE (0001ms, 1091ms total)
T1050 005:563 JLINK_IsHalted()  returns FALSE (0002ms, 1092ms total)
T1050 005:665 JLINK_IsHalted()  returns FALSE (0002ms, 1092ms total)
T1204 005:703 JLINK_ReadMem (0x0800461A, 0x0002 Bytes, ...) -- CPU is running -- CPU_ReadMem(2 bytes @ 0x0800461A) - Data: DD F8  returns 0x00 (0002ms, 1092ms total)
T1204 005:705 JLINK_ReadMem (0x0800461C, 0x0002 Bytes, ...) -- CPU is running -- CPU_ReadMem(2 bytes @ 0x0800461C) - Data: 24 90  returns 0x00 (0002ms, 1094ms total)
T1204 005:707 JLINK_ReadMem (0x0800461E, 0x0002 Bytes, ...) -- CPU is running -- CPU_ReadMem(2 bytes @ 0x0800461E) - Data: DD F8  returns 0x00 (0003ms, 1097ms total)
T1204 005:710 JLINK_ReadMem (0x08004620, 0x0002 Bytes, ...) -- CPU is running -- CPU_ReadMem(2 bytes @ 0x08004620) - Data: 24 80  returns 0x00 (0002ms, 1099ms total)
T1204 005:712 JLINK_ReadMem (0x08004622, 0x0002 Bytes, ...) -- CPU is running -- CPU_ReadMem(2 bytes @ 0x08004622) - Data: E3 E6  returns 0x00 (0002ms, 1101ms total)
T1204 005:714 JLINK_ReadMem (0x08004624, 0x0002 Bytes, ...) -- CPU is running -- CPU_ReadMem(2 bytes @ 0x08004624) - Data: 2C 58  returns 0x00 (0003ms, 1104ms total)
T1204 005:717 JLINK_ReadMem (0x08004626, 0x0002 Bytes, ...) -- CPU is running -- CPU_ReadMem(2 bytes @ 0x08004626) - Data: 00 08  returns 0x00 (0002ms, 1106ms total)
T1204 005:719 JLINK_ReadMem (0x08004628, 0x0002 Bytes, ...) -- CPU is running -- CPU_ReadMem(2 bytes @ 0x08004628) - Data: 00 00  returns 0x00 (0002ms, 1108ms total)
T1204 005:721 JLINK_ReadMem (0x0800462A, 0x0002 Bytes, ...) -- CPU is running -- CPU_ReadMem(2 bytes @ 0x0800462A) - Data: 00 00  returns 0x00 (0002ms, 1110ms total)
T1204 005:723 JLINK_ReadMem (0x0800462C, 0x0002 Bytes, ...) -- CPU is running -- CPU_ReadMem(2 bytes @ 0x0800462C) - Data: 3C 00  returns 0x00 (0003ms, 1113ms total)
T1204 005:726 JLINK_ReadMem (0x0800462E, 0x0002 Bytes, ...) -- CPU is running -- CPU_ReadMem(2 bytes @ 0x0800462E) - Data: 00 20  returns 0x00 (0002ms, 1115ms total)
T1204 005:728 JLINK_ReadMem (0x08004630, 0x0002 Bytes, ...) -- CPU is running -- CPU_ReadMem(2 bytes @ 0x08004630) - Data: 78 7D  returns 0x00 (0002ms, 1117ms total)
T1204 005:730 JLINK_ReadMem (0x08004632, 0x0002 Bytes, ...) -- CPU is running -- CPU_ReadMem(2 bytes @ 0x08004632) - Data: 8B 3A  returns 0x00 (0003ms, 1120ms total)
T1204 005:733 JLINK_ReadMem (0x08004634, 0x0002 Bytes, ...) -- CPU is running -- CPU_ReadMem(2 bytes @ 0x08004634) - Data: 00 00  returns 0x00 (0002ms, 1122ms total)
T1050 005:767 JLINK_IsHalted()  returns FALSE (0001ms, 1123ms total)
T1204 005:855 JLINK_SetBPEx(Addr = 0x0800461A, Type = 0xFFFFFFF2) -- CPU is running -- CPU is running -- CPU_WriteMem(4 bytes @ 0xE0002008)  returns 0x00000002 (0001ms, 1123ms total)
T1050 005:868 JLINK_IsHalted()  returns TRUE (0006ms, 1129ms total)
T1050 005:874 JLINK_Halt()  returns 0x00 (0000ms, 1123ms total)
T1050 005:874 JLINK_IsHalted()  returns TRUE (0000ms, 1123ms total)
T1050 005:874 JLINK_IsHalted()  returns TRUE (0000ms, 1123ms total)
T1050 005:874 JLINK_IsHalted()  returns TRUE (0000ms, 1123ms total)
T1050 005:874 JLINK_ReadReg(R15 (PC))  returns 0x0800461A (0000ms, 1123ms total)
T1050 005:874 JLINK_ReadReg(XPSR)  returns 0x21000000 (0000ms, 1123ms total)
T1050 005:874 JLINK_ClrBPEx(BPHandle = 0x00000002)  returns 0x00 (0000ms, 1123ms total)
T1050 005:874 JLINK_ReadMemU32(0xE000ED30, 0x0001 Items, ...) -- CPU_ReadMem(4 bytes @ 0xE000ED30) - Data: 03 00 00 00  returns 0x01 (0002ms, 1125ms total)
T1050 005:876 JLINK_ReadMemU32(0xE0001028, 0x0001 Items, ...) -- CPU_ReadMem(4 bytes @ 0xE0001028) - Data: 00 00 00 00  returns 0x01 (0002ms, 1127ms total)
T1050 005:878 JLINK_ReadMemU32(0xE0001038, 0x0001 Items, ...) -- CPU_ReadMem(4 bytes @ 0xE0001038) - Data: 00 02 00 00  returns 0x01 (0001ms, 1128ms total)
T1050 005:879 JLINK_ReadMemU32(0xE0001048, 0x0001 Items, ...) -- CPU_ReadMem(4 bytes @ 0xE0001048) - Data: 00 00 00 00  returns 0x01 (0002ms, 1130ms total)
T1050 005:881 JLINK_ReadMemU32(0xE0001058, 0x0001 Items, ...) -- CPU_ReadMem(4 bytes @ 0xE0001058) - Data: 00 00 00 00  returns 0x01 (0002ms, 1132ms total)
T1050 005:883 JLINK_ReadReg(R0)  returns 0x400264B8 (0000ms, 1132ms total)
T1050 005:883 JLINK_ReadReg(R1)  returns 0x00000001 (0000ms, 1132ms total)
T1050 005:883 JLINK_ReadReg(R2)  returns 0x08020455 (0000ms, 1132ms total)
T1050 005:883 JLINK_ReadReg(R3)  returns 0x20000114 (0000ms, 1132ms total)
T1050 005:883 JLINK_ReadReg(R4)  returns 0x2000003C (0000ms, 1132ms total)
T1050 005:883 JLINK_ReadReg(R5)  returns 0x00000088 (0000ms, 1132ms total)
T1050 005:883 JLINK_ReadReg(R6)  returns 0xFFFFFFFE (0000ms, 1132ms total)
T1050 005:883 JLINK_ReadReg(R7)  returns 0x000000D0 (0000ms, 1132ms total)
T1050 005:883 JLINK_ReadReg(R8)  returns 0x00000F0C (0000ms, 1132ms total)
T1050 005:883 JLINK_ReadReg(R9)  returns 0x00000F07 (0000ms, 1132ms total)
T1050 005:883 JLINK_ReadReg(R10)  returns 0x00000001 (0000ms, 1132ms total)
T1050 005:883 JLINK_ReadReg(R11)  returns 0x00000088 (0000ms, 1132ms total)
T1050 005:883 JLINK_ReadReg(R12)  returns 0xFFFFFFFF (0000ms, 1132ms total)
T1050 005:883 JLINK_ReadReg(R13 (SP))  returns 0x20002E00 (0000ms, 1132ms total)
T1050 005:883 JLINK_ReadReg(R14)  returns 0x080035FB (0000ms, 1132ms total)
T1050 005:883 JLINK_ReadReg(R15 (PC))  returns 0x0800461A (0000ms, 1132ms total)
T1050 005:883 JLINK_ReadReg(XPSR)  returns 0x21000000 (0000ms, 1132ms total)
T1050 005:883 JLINK_ReadReg(MSP)  returns 0x20002E00 (0000ms, 1132ms total)
T1050 005:883 JLINK_ReadReg(PSP)  returns 0x00000000 (0000ms, 1132ms total)
T1050 005:883 JLINK_ReadReg(CFBP)  returns 0x04000000 (0000ms, 1132ms total)
T1050 005:883 JLINK_ReadReg(FPSCR)  returns 0x83000098 (0009ms, 1141ms total)
T1050 005:892 JLINK_ReadReg(FPS0)  returns 0x43B333EC (0000ms, 1141ms total)
T1050 005:892 JLINK_ReadReg(FPS1)  returns 0x42652EE1 (0000ms, 1141ms total)
T1050 005:892 JLINK_ReadReg(FPS2)  returns 0x3A4B195C (0000ms, 1141ms total)
T1050 005:892 JLINK_ReadReg(FPS3)  returns 0xBA924BE5 (0000ms, 1141ms total)
T1050 005:892 JLINK_ReadReg(FPS4)  returns 0x408A5DA9 (0000ms, 1141ms total)
T1050 005:892 JLINK_ReadReg(FPS5)  returns 0xBCE2279D (0000ms, 1141ms total)
T1050 005:892 JLINK_ReadReg(FPS6)  returns 0x3F7DE7C0 (0000ms, 1141ms total)
T1050 005:892 JLINK_ReadReg(FPS7)  returns 0xBCE3F630 (0000ms, 1141ms total)
T1050 005:892 JLINK_ReadReg(FPS8)  returns 0x40981895 (0000ms, 1141ms total)
T1050 005:892 JLINK_ReadReg(FPS9)  returns 0x00000000 (0000ms, 1141ms total)
T1050 005:892 JLINK_ReadReg(FPS10)  returns 0x00000000 (0000ms, 1141ms total)
T1050 005:892 JLINK_ReadReg(FPS11)  returns 0x00000000 (0000ms, 1141ms total)
T1050 005:892 JLINK_ReadReg(FPS12)  returns 0x00000000 (0000ms, 1141ms total)
T1050 005:892 JLINK_ReadReg(FPS13)  returns 0x00000000 (0000ms, 1141ms total)
T1050 005:892 JLINK_ReadReg(FPS14)  returns 0x00000000 (0000ms, 1141ms total)
T1050 005:892 JLINK_ReadReg(FPS15)  returns 0x00000000 (0000ms, 1141ms total)
T1050 005:892 JLINK_ReadReg(FPS16)  returns 0x3BA3D70B (0000ms, 1141ms total)
T1050 005:892 JLINK_ReadReg(FPS17)  returns 0x00000000 (0000ms, 1141ms total)
T1050 005:892 JLINK_ReadReg(FPS18)  returns 0x00000000 (0000ms, 1141ms total)
T1050 005:892 JLINK_ReadReg(FPS19)  returns 0x00000000 (0001ms, 1142ms total)
T1050 005:893 JLINK_ReadReg(FPS20)  returns 0x00000000 (0000ms, 1142ms total)
T1050 005:893 JLINK_ReadReg(FPS31)  returns 0x00000000 (0000ms, 1142ms total)
T1050 005:893 JLINK_ReadReg(FPS7)  returns 0xBCE3F630 (0000ms, 1142ms total)
T1050 005:893 JLINK_ReadReg(FPS8)  returns 0x40981895 (0000ms, 1142ms total)
T1050 005:893 JLINK_ReadReg(FPS9)  returns 0x00000000 (0000ms, 1142ms total)
T1050 005:893 JLINK_ReadReg(FPS10)  returns 0x00000000 (0000ms, 1142ms total)
T1050 005:893 JLINK_ReadReg(FPS11)  returns 0x00000000 (0000ms, 1142ms total)
T1050 005:893 JLINK_ReadReg(FPS12)  returns 0x00000000 (0000ms, 1142ms total)
T1050 005:893 JLINK_ReadReg(FPS13)  returns 0x00000000 (0000ms, 1142ms total)
T1050 005:893 JLINK_ReadReg(FPS14)  returns 0x00000000 (0000ms, 1142ms total)
T1050 005:893 JLINK_ReadReg(FPS15)  returns 0x00000000 (0000ms, 1142ms total)
T1050 005:893 JLINK_ReadReg(FPS16)  returns 0x3BA3D70B (0000ms, 1142ms total)
T1204 005:893 JLINK_ReadMem (0x20004644, 0x0001 Bytes, ...) -- CPU_ReadMem(64 bytes @ 0x20004640) -- Updating C cache (64 bytes @ 0x20004640) -- Read from C cache (1 bytes @ 0x20004644) - Data: 02  returns 0x00 (0002ms, 1144ms total)
T1204 005:895 JLINK_ReadMem (0x20004640, 0x0002 Bytes, ...) -- Read from C cache (2 bytes @ 0x20004640) - Data: C8 00  returns 0x00 (0000ms, 1144ms total)
T1204 005:895 JLINK_ReadMem (0x2000463C, 0x0002 Bytes, ...) -- CPU_ReadMem(64 bytes @ 0x20004600) -- Updating C cache (64 bytes @ 0x20004600) -- Read from C cache (2 bytes @ 0x2000463C) - Data: D0 07  returns 0x00 (0002ms, 1146ms total)
T1204 005:897 JLINK_ReadMem (0x200045EC, 0x0002 Bytes, ...) -- CPU_ReadMem(64 bytes @ 0x200045C0) -- Updating C cache (64 bytes @ 0x200045C0) -- Read from C cache (2 bytes @ 0x200045EC) - Data: 78 00  returns 0x00 (0002ms, 1148ms total)
T1204 005:899 JLINK_ReadMem (0x200045E8, 0x0001 Bytes, ...) -- Read from C cache (1 bytes @ 0x200045E8) - Data: 1D  returns 0x00 (0000ms, 1148ms total)
T1204 005:899 JLINK_ReadMem (0x200045D4, 0x0004 Bytes, ...) -- Read from C cache (4 bytes @ 0x200045D4) - Data: 11 0F 00 00  returns 0x00 (0000ms, 1148ms total)
T1204 005:899 JLINK_ReadMem (0x20002E24, 0x0004 Bytes, ...) -- CPU_ReadMem(64 bytes @ 0x20002E00) -- Updating C cache (64 bytes @ 0x20002E00) -- Read from C cache (4 bytes @ 0x20002E24) - Data: 11 0F 00 00  returns 0x00 (0002ms, 1150ms total)
T1204 005:901 JLINK_ReadMem (0x00000000, 0x0002 Bytes, ...) -- CPU_ReadMem(4 bytes @ 0x00000004) -- CPU_ReadMem(64 bytes @ 0x08000000) -- Updating C cache (64 bytes @ 0x08000000) -- Read from C cache (2 bytes @ 0x08000000) - Data: 88 46  returns 0x00 (0004ms, 1154ms total)
T1204 005:906 JLINK_ReadMemU32(0xE0001004, 0x0001 Items, ...) -- CPU_ReadMem(4 bytes @ 0xE0001004) - Data: F3 97 70 1D  returns 0x01 (0002ms, 1156ms total)
T1204 006:956 JLINK_ReadMem (0x200045C8, 0x0004 Bytes, ...) -- Read from C cache (4 bytes @ 0x200045C8) - Data: 64 0E 00 40  returns 0x00 (0002ms, 1158ms total)
T1204 006:958 JLINK_ReadMem (0x200045CC, 0x0004 Bytes, ...) -- Read from C cache (4 bytes @ 0x200045CC) - Data: D7 6E 2C 40  returns 0x00 (0000ms, 1158ms total)
T1204 006:958 JLINK_ReadMem (0x200045D0, 0x0004 Bytes, ...) -- Read from C cache (4 bytes @ 0x200045D0) - Data: EC 33 B3 43  returns 0x00 (0000ms, 1158ms total)
T1050 007:233 JLINK_Step() -- CPU_ReadMem(64 bytes @ 0x08004600) -- Updating C cache (64 bytes @ 0x08004600) -- Read from C cache (2 bytes @ 0x0800461A) -- Read from C cache (2 bytes @ 0x0800461C) -- Not simulated -- CPU_WriteMem(4 bytes @ 0xE0002008)  returns 0x00 (0015ms, 1173ms total)
T1050 007:248 JLINK_ReadReg(R15 (PC))  returns 0x0800461E (0000ms, 1173ms total)
T1050 007:248 JLINK_ReadReg(XPSR)  returns 0x21000000 (0000ms, 1173ms total)
T1050 007:248 JLINK_SetBPEx(Addr = 0x0800461A, Type = 0xFFFFFFF2)  returns 0x00000003 (0000ms, 1173ms total)
T1050 007:248 JLINK_Go() -- CPU_WriteMem(4 bytes @ 0xE0002008) (0003ms, 1176ms total)
T1050 007:351 JLINK_IsHalted()  returns TRUE (0006ms, 1182ms total)
T1050 007:357 JLINK_Halt()  returns 0x00 (0000ms, 1176ms total)
T1050 007:357 JLINK_IsHalted()  returns TRUE (0000ms, 1176ms total)
T1050 007:357 JLINK_IsHalted()  returns TRUE (0000ms, 1176ms total)
T1050 007:357 JLINK_IsHalted()  returns TRUE (0000ms, 1176ms total)
T1050 007:357 JLINK_ReadReg(R15 (PC))  returns 0x0800461A (0000ms, 1176ms total)
T1050 007:357 JLINK_ReadReg(XPSR)  returns 0x21000000 (0000ms, 1176ms total)
T1050 007:357 JLINK_ClrBPEx(BPHandle = 0x00000003)  returns 0x00 (0000ms, 1176ms total)
T1050 007:357 JLINK_ReadMemU32(0xE000ED30, 0x0001 Items, ...) -- CPU_ReadMem(4 bytes @ 0xE000ED30) - Data: 03 00 00 00  returns 0x01 (0002ms, 1178ms total)
T1050 007:359 JLINK_ReadMemU32(0xE0001028, 0x0001 Items, ...) -- CPU_ReadMem(4 bytes @ 0xE0001028) - Data: 00 00 00 00  returns 0x01 (0002ms, 1180ms total)
T1050 007:361 JLINK_ReadMemU32(0xE0001038, 0x0001 Items, ...) -- CPU_ReadMem(4 bytes @ 0xE0001038) - Data: 00 02 00 00  returns 0x01 (0002ms, 1182ms total)
T1050 007:363 JLINK_ReadMemU32(0xE0001048, 0x0001 Items, ...) -- CPU_ReadMem(4 bytes @ 0xE0001048) - Data: 00 00 00 00  returns 0x01 (0003ms, 1185ms total)
T1050 007:366 JLINK_ReadMemU32(0xE0001058, 0x0001 Items, ...) -- CPU_ReadMem(4 bytes @ 0xE0001058) - Data: 00 00 00 00  returns 0x01 (0002ms, 1187ms total)
T1050 007:368 JLINK_ReadReg(R0)  returns 0x400264B8 (0000ms, 1187ms total)
T1050 007:368 JLINK_ReadReg(R1)  returns 0x00000001 (0000ms, 1187ms total)
T1050 007:368 JLINK_ReadReg(R2)  returns 0x08020455 (0000ms, 1187ms total)
T1050 007:368 JLINK_ReadReg(R3)  returns 0x20000114 (0000ms, 1187ms total)
T1050 007:368 JLINK_ReadReg(R4)  returns 0x2000003C (0000ms, 1187ms total)
T1050 007:368 JLINK_ReadReg(R5)  returns 0x00000088 (0000ms, 1187ms total)
T1050 007:368 JLINK_ReadReg(R6)  returns 0xFFFFFFFE (0000ms, 1187ms total)
T1050 007:368 JLINK_ReadReg(R7)  returns 0x000000D0 (0000ms, 1187ms total)
T1050 007:368 JLINK_ReadReg(R8)  returns 0x00000F11 (0000ms, 1187ms total)
T1050 007:368 JLINK_ReadReg(R9)  returns 0x00000F11 (0000ms, 1187ms total)
T1050 007:368 JLINK_ReadReg(R10)  returns 0x00000001 (0000ms, 1187ms total)
T1050 007:368 JLINK_ReadReg(R11)  returns 0x00000088 (0000ms, 1187ms total)
T1050 007:368 JLINK_ReadReg(R12)  returns 0xFFFFFFFF (0000ms, 1187ms total)
T1050 007:368 JLINK_ReadReg(R13 (SP))  returns 0x20002E00 (0000ms, 1187ms total)
T1050 007:368 JLINK_ReadReg(R14)  returns 0x080035FB (0000ms, 1187ms total)
T1050 007:368 JLINK_ReadReg(R15 (PC))  returns 0x0800461A (0000ms, 1187ms total)
T1050 007:368 JLINK_ReadReg(XPSR)  returns 0x21000000 (0000ms, 1187ms total)
T1050 007:368 JLINK_ReadReg(MSP)  returns 0x20002E00 (0000ms, 1187ms total)
T1050 007:368 JLINK_ReadReg(PSP)  returns 0x00000000 (0000ms, 1187ms total)
T1050 007:368 JLINK_ReadReg(CFBP)  returns 0x04000000 (0000ms, 1187ms total)
T1050 007:368 JLINK_ReadReg(FPSCR)  returns 0x83000098 (0010ms, 1197ms total)
T1050 007:378 JLINK_ReadReg(FPS0)  returns 0x43B2676F (0000ms, 1197ms total)
T1050 007:378 JLINK_ReadReg(FPS1)  returns 0x42652EE1 (0000ms, 1197ms total)
T1050 007:378 JLINK_ReadReg(FPS2)  returns 0x3B4BD1E1 (0000ms, 1197ms total)
T1050 007:378 JLINK_ReadReg(FPS3)  returns 0xBB92FCAC (0000ms, 1197ms total)
T1050 007:378 JLINK_ReadReg(FPS4)  returns 0x408AB8A5 (0000ms, 1197ms total)
T1050 007:378 JLINK_ReadReg(FPS5)  returns 0xBD624636 (0000ms, 1197ms total)
T1050 007:378 JLINK_ReadReg(FPS6)  returns 0x3F7D9702 (0000ms, 1197ms total)
T1050 007:378 JLINK_ReadReg(FPS7)  returns 0xBD64303C (0000ms, 1197ms total)
T1050 007:378 JLINK_ReadReg(FPS8)  returns 0x40982BB6 (0000ms, 1197ms total)
T1050 007:378 JLINK_ReadReg(FPS9)  returns 0x00000000 (0000ms, 1197ms total)
T1050 007:378 JLINK_ReadReg(FPS10)  returns 0x00000000 (0000ms, 1197ms total)
T1050 007:378 JLINK_ReadReg(FPS11)  returns 0x00000000 (0000ms, 1197ms total)
T1050 007:378 JLINK_ReadReg(FPS12)  returns 0x00000000 (0000ms, 1197ms total)
T1050 007:378 JLINK_ReadReg(FPS13)  returns 0x00000000 (0000ms, 1197ms total)
T1050 007:378 JLINK_ReadReg(FPS14)  returns 0x00000000 (0000ms, 1197ms total)
T1050 007:378 JLINK_ReadReg(FPS15)  returns 0x00000000 (0000ms, 1197ms total)
T1050 007:378 JLINK_ReadReg(FPS16)  returns 0x3D591688 (0000ms, 1197ms total)
T1050 007:378 JLINK_ReadReg(FPS17)  returns 0x00000000 (0000ms, 1197ms total)
T1050 007:378 JLINK_ReadReg(FPS18)  returns 0x00000000 (0000ms, 1197ms total)
T1050 007:378 JLINK_ReadReg(FPS19)  returns 0x00000000 (0000ms, 1197ms total)
T1050 007:378 JLINK_ReadReg(FPS20)  returns 0x00000000 (0000ms, 1197ms total)
T1050 007:378 JLINK_ReadReg(FPS31)  returns 0x00000000 (0000ms, 1197ms total)
T1050 007:378 JLINK_ReadReg(FPS7)  returns 0xBD64303C (0000ms, 1197ms total)
T1050 007:378 JLINK_ReadReg(FPS8)  returns 0x40982BB6 (0000ms, 1197ms total)
T1050 007:378 JLINK_ReadReg(FPS9)  returns 0x00000000 (0000ms, 1197ms total)
T1050 007:378 JLINK_ReadReg(FPS10)  returns 0x00000000 (0000ms, 1197ms total)
T1050 007:378 JLINK_ReadReg(FPS11)  returns 0x00000000 (0000ms, 1197ms total)
T1050 007:378 JLINK_ReadReg(FPS12)  returns 0x00000000 (0000ms, 1197ms total)
T1050 007:378 JLINK_ReadReg(FPS13)  returns 0x00000000 (0000ms, 1197ms total)
T1050 007:378 JLINK_ReadReg(FPS14)  returns 0x00000000 (0000ms, 1197ms total)
T1050 007:378 JLINK_ReadReg(FPS15)  returns 0x00000000 (0000ms, 1197ms total)
T1050 007:378 JLINK_ReadReg(FPS16)  returns 0x3D591688 (0000ms, 1197ms total)
T1204 007:379 JLINK_ReadMem (0x20004644, 0x0001 Bytes, ...) -- CPU_ReadMem(64 bytes @ 0x20004640) -- Updating C cache (64 bytes @ 0x20004640) -- Read from C cache (1 bytes @ 0x20004644) - Data: 02  returns 0x00 (0002ms, 1199ms total)
T1204 007:381 JLINK_ReadMem (0x20004640, 0x0002 Bytes, ...) -- Read from C cache (2 bytes @ 0x20004640) - Data: C8 00  returns 0x00 (0000ms, 1199ms total)
T1204 007:381 JLINK_ReadMem (0x2000463C, 0x0002 Bytes, ...) -- CPU_ReadMem(64 bytes @ 0x20004600) -- Updating C cache (64 bytes @ 0x20004600) -- Read from C cache (2 bytes @ 0x2000463C) - Data: D0 07  returns 0x00 (0002ms, 1201ms total)
T1204 007:383 JLINK_ReadMem (0x200045EC, 0x0002 Bytes, ...) -- CPU_ReadMem(64 bytes @ 0x200045C0) -- Updating C cache (64 bytes @ 0x200045C0) -- Read from C cache (2 bytes @ 0x200045EC) - Data: 78 00  returns 0x00 (0002ms, 1203ms total)
T1204 007:385 JLINK_ReadMem (0x200045E8, 0x0001 Bytes, ...) -- Read from C cache (1 bytes @ 0x200045E8) - Data: 00  returns 0x00 (0000ms, 1203ms total)
T1204 007:385 JLINK_ReadMem (0x200045D4, 0x0004 Bytes, ...) -- Read from C cache (4 bytes @ 0x200045D4) - Data: 46 0F 00 00  returns 0x00 (0000ms, 1203ms total)
T1204 007:385 JLINK_ReadMem (0x20002E24, 0x0004 Bytes, ...) -- CPU_ReadMem(64 bytes @ 0x20002E00) -- Updating C cache (64 bytes @ 0x20002E00) -- Read from C cache (4 bytes @ 0x20002E24) - Data: 46 0F 00 00  returns 0x00 (0003ms, 1206ms total)
T1204 007:388 JLINK_ReadMem (0x00000000, 0x0002 Bytes, ...) -- CPU_ReadMem(4 bytes @ 0x00000004) -- CPU_ReadMem(64 bytes @ 0x08000000) -- Updating C cache (64 bytes @ 0x08000000) -- Read from C cache (2 bytes @ 0x08000000) - Data: 88 46  returns 0x00 (0004ms, 1210ms total)
T1204 007:392 JLINK_ReadMemU32(0xE0001004, 0x0001 Items, ...) -- CPU_ReadMem(4 bytes @ 0xE0001004) - Data: 82 43 D8 1D  returns 0x01 (0002ms, 1212ms total)
T1204 007:394 JLINK_ReadMem (0x200045C8, 0x0004 Bytes, ...) -- Read from C cache (4 bytes @ 0x200045C8) - Data: A2 24 F7 3F  returns 0x00 (0000ms, 1212ms total)
T1204 007:395 JLINK_ReadMem (0x200045CC, 0x0004 Bytes, ...) -- Read from C cache (4 bytes @ 0x200045CC) - Data: 00 8A 32 40  returns 0x00 (0000ms, 1212ms total)
T1204 007:395 JLINK_ReadMem (0x200045D0, 0x0004 Bytes, ...) -- Read from C cache (4 bytes @ 0x200045D0) - Data: 6F 67 B2 43  returns 0x00 (0000ms, 1212ms total)
T1050 007:733 JLINK_Step() -- CPU_ReadMem(64 bytes @ 0x08004600) -- Updating C cache (64 bytes @ 0x08004600) -- Read from C cache (2 bytes @ 0x0800461A) -- Read from C cache (2 bytes @ 0x0800461C) -- Not simulated -- CPU_WriteMem(4 bytes @ 0xE0002008)  returns 0x00 (0013ms, 1225ms total)
T1050 007:746 JLINK_ReadReg(R15 (PC))  returns 0x0800461E (0000ms, 1225ms total)
T1050 007:746 JLINK_ReadReg(XPSR)  returns 0x21000000 (0000ms, 1225ms total)
T1050 007:746 JLINK_SetBPEx(Addr = 0x0800461A, Type = 0xFFFFFFF2)  returns 0x00000004 (0000ms, 1225ms total)
T1050 007:746 JLINK_Go() -- CPU_WriteMem(4 bytes @ 0xE0002008) (0005ms, 1230ms total)
T1050 007:851 JLINK_IsHalted()  returns TRUE (0006ms, 1236ms total)
T1050 007:857 JLINK_Halt()  returns 0x00 (0000ms, 1230ms total)
T1050 007:857 JLINK_IsHalted()  returns TRUE (0000ms, 1230ms total)
T1050 007:857 JLINK_IsHalted()  returns TRUE (0000ms, 1230ms total)
T1050 007:857 JLINK_IsHalted()  returns TRUE (0000ms, 1230ms total)
T1050 007:857 JLINK_ReadReg(R15 (PC))  returns 0x0800461A (0000ms, 1230ms total)
T1050 007:857 JLINK_ReadReg(XPSR)  returns 0x21000000 (0000ms, 1230ms total)
T1050 007:857 JLINK_ClrBPEx(BPHandle = 0x00000004)  returns 0x00 (0000ms, 1230ms total)
T1050 007:857 JLINK_ReadMemU32(0xE000ED30, 0x0001 Items, ...) -- CPU_ReadMem(4 bytes @ 0xE000ED30) - Data: 03 00 00 00  returns 0x01 (0002ms, 1232ms total)
T1050 007:859 JLINK_ReadMemU32(0xE0001028, 0x0001 Items, ...) -- CPU_ReadMem(4 bytes @ 0xE0001028) - Data: 00 00 00 00  returns 0x01 (0002ms, 1234ms total)
T1050 007:861 JLINK_ReadMemU32(0xE0001038, 0x0001 Items, ...) -- CPU_ReadMem(4 bytes @ 0xE0001038) - Data: 00 02 00 00  returns 0x01 (0003ms, 1237ms total)
T1050 007:864 JLINK_ReadMemU32(0xE0001048, 0x0001 Items, ...) -- CPU_ReadMem(4 bytes @ 0xE0001048) - Data: 00 00 00 00  returns 0x01 (0002ms, 1239ms total)
T1050 007:866 JLINK_ReadMemU32(0xE0001058, 0x0001 Items, ...) -- CPU_ReadMem(4 bytes @ 0xE0001058) - Data: 00 00 00 00  returns 0x01 (0002ms, 1241ms total)
T1050 007:869 JLINK_ReadReg(R0)  returns 0x400264B8 (0000ms, 1241ms total)
T1050 007:869 JLINK_ReadReg(R1)  returns 0x00000001 (0000ms, 1241ms total)
T1050 007:869 JLINK_ReadReg(R2)  returns 0x08020455 (0000ms, 1241ms total)
T1050 007:869 JLINK_ReadReg(R3)  returns 0x20000114 (0000ms, 1241ms total)
T1050 007:869 JLINK_ReadReg(R4)  returns 0x2000003C (0000ms, 1241ms total)
T1050 007:869 JLINK_ReadReg(R5)  returns 0x00000088 (0000ms, 1241ms total)
T1050 007:869 JLINK_ReadReg(R6)  returns 0xFFFFFFFE (0000ms, 1241ms total)
T1050 007:869 JLINK_ReadReg(R7)  returns 0x000000D0 (0000ms, 1241ms total)
T1050 007:869 JLINK_ReadReg(R8)  returns 0x00000F46 (0000ms, 1241ms total)
T1050 007:869 JLINK_ReadReg(R9)  returns 0x00000F46 (0000ms, 1241ms total)
T1050 007:869 JLINK_ReadReg(R10)  returns 0x00000001 (0000ms, 1241ms total)
T1050 007:869 JLINK_ReadReg(R11)  returns 0x00000088 (0000ms, 1241ms total)
T1050 007:869 JLINK_ReadReg(R12)  returns 0xFFFFFFFF (0000ms, 1241ms total)
T1050 007:869 JLINK_ReadReg(R13 (SP))  returns 0x20002E00 (0000ms, 1241ms total)
T1050 007:869 JLINK_ReadReg(R14)  returns 0x080035FB (0000ms, 1241ms total)
T1050 007:869 JLINK_ReadReg(R15 (PC))  returns 0x0800461A (0000ms, 1241ms total)
T1050 007:869 JLINK_ReadReg(XPSR)  returns 0x21000000 (0000ms, 1241ms total)
T1050 007:869 JLINK_ReadReg(MSP)  returns 0x20002E00 (0000ms, 1241ms total)
T1050 007:869 JLINK_ReadReg(PSP)  returns 0x00000000 (0000ms, 1241ms total)
T1050 007:869 JLINK_ReadReg(CFBP)  returns 0x04000000 (0000ms, 1241ms total)
T1050 007:869 JLINK_ReadReg(FPSCR)  returns 0x83000098 (0010ms, 1251ms total)
T1050 007:879 JLINK_ReadReg(FPS0)  returns 0x43B22BEE (0000ms, 1251ms total)
T1050 007:879 JLINK_ReadReg(FPS1)  returns 0x42652EE1 (0000ms, 1251ms total)
T1050 007:879 JLINK_ReadReg(FPS2)  returns 0x3B85D70F (0000ms, 1251ms total)
T1050 007:879 JLINK_ReadReg(FPS3)  returns 0xBBC1226E (0000ms, 1251ms total)
T1050 007:879 JLINK_ReadReg(FPS4)  returns 0x408ADEA3 (0000ms, 1251ms total)
T1050 007:879 JLINK_ReadReg(FPS5)  returns 0xBD819742 (0000ms, 1251ms total)
T1050 007:879 JLINK_ReadReg(FPS6)  returns 0x3F7D76C8 (0000ms, 1251ms total)
T1050 007:879 JLINK_ReadReg(FPS7)  returns 0xBD82B5AF (0000ms, 1251ms total)
T1050 007:879 JLINK_ReadReg(FPS8)  returns 0x409833B2 (0000ms, 1251ms total)
T1050 007:879 JLINK_ReadReg(FPS9)  returns 0x00000000 (0000ms, 1251ms total)
T1050 007:879 JLINK_ReadReg(FPS10)  returns 0x00000000 (0000ms, 1251ms total)
T1050 007:879 JLINK_ReadReg(FPS11)  returns 0x00000000 (0000ms, 1251ms total)
T1050 007:879 JLINK_ReadReg(FPS12)  returns 0x00000000 (0000ms, 1251ms total)
T1050 007:879 JLINK_ReadReg(FPS13)  returns 0x00000000 (0000ms, 1251ms total)
T1050 007:879 JLINK_ReadReg(FPS14)  returns 0x00000000 (0000ms, 1251ms total)
T1050 007:879 JLINK_ReadReg(FPS15)  returns 0x00000000 (0000ms, 1251ms total)
T1050 007:879 JLINK_ReadReg(FPS16)  returns 0x3D6147AF (0000ms, 1251ms total)
T1050 007:879 JLINK_ReadReg(FPS17)  returns 0x00000000 (0000ms, 1251ms total)
T1050 007:879 JLINK_ReadReg(FPS18)  returns 0x00000000 (0000ms, 1251ms total)
T1050 007:879 JLINK_ReadReg(FPS19)  returns 0x00000000 (0000ms, 1251ms total)
T1050 007:879 JLINK_ReadReg(FPS20)  returns 0x00000000 (0000ms, 1251ms total)
T1050 007:879 JLINK_ReadReg(FPS31)  returns 0x00000000 (0000ms, 1251ms total)
T1050 007:879 JLINK_ReadReg(FPS7)  returns 0xBD82B5AF (0000ms, 1251ms total)
T1050 007:879 JLINK_ReadReg(FPS8)  returns 0x409833B2 (0000ms, 1251ms total)
T1050 007:879 JLINK_ReadReg(FPS9)  returns 0x00000000 (0000ms, 1251ms total)
T1050 007:879 JLINK_ReadReg(FPS10)  returns 0x00000000 (0000ms, 1251ms total)
T1050 007:880 JLINK_ReadReg(FPS11)  returns 0x00000000 (0000ms, 1252ms total)
T1050 007:880 JLINK_ReadReg(FPS12)  returns 0x00000000 (0000ms, 1252ms total)
T1050 007:880 JLINK_ReadReg(FPS13)  returns 0x00000000 (0000ms, 1252ms total)
T1050 007:880 JLINK_ReadReg(FPS14)  returns 0x00000000 (0000ms, 1252ms total)
T1050 007:880 JLINK_ReadReg(FPS15)  returns 0x00000000 (0000ms, 1252ms total)
T1050 007:880 JLINK_ReadReg(FPS16)  returns 0x3D6147AF (0000ms, 1252ms total)
T1204 007:880 JLINK_ReadMem (0x20004644, 0x0001 Bytes, ...) -- CPU_ReadMem(64 bytes @ 0x20004640) -- Updating C cache (64 bytes @ 0x20004640) -- Read from C cache (1 bytes @ 0x20004644) - Data: 02  returns 0x00 (0002ms, 1254ms total)
T1204 007:882 JLINK_ReadMem (0x20004640, 0x0002 Bytes, ...) -- Read from C cache (2 bytes @ 0x20004640) - Data: C8 00  returns 0x00 (0000ms, 1254ms total)
T1204 007:882 JLINK_ReadMem (0x2000463C, 0x0002 Bytes, ...) -- CPU_ReadMem(64 bytes @ 0x20004600) -- Updating C cache (64 bytes @ 0x20004600) -- Read from C cache (2 bytes @ 0x2000463C) - Data: D0 07  returns 0x00 (0002ms, 1256ms total)
T1204 007:884 JLINK_ReadMem (0x200045EC, 0x0002 Bytes, ...) -- CPU_ReadMem(64 bytes @ 0x200045C0) -- Updating C cache (64 bytes @ 0x200045C0) -- Read from C cache (2 bytes @ 0x200045EC) - Data: 78 00  returns 0x00 (0002ms, 1258ms total)
T1204 007:886 JLINK_ReadMem (0x200045E8, 0x0001 Bytes, ...) -- Read from C cache (1 bytes @ 0x200045E8) - Data: 00  returns 0x00 (0000ms, 1258ms total)
T1204 007:887 JLINK_ReadMem (0x200045D4, 0x0004 Bytes, ...) -- Read from C cache (4 bytes @ 0x200045D4) - Data: 7D 0F 00 00  returns 0x00 (0000ms, 1258ms total)
T1204 007:887 JLINK_ReadMem (0x20002E24, 0x0004 Bytes, ...) -- CPU_ReadMem(64 bytes @ 0x20002E00) -- Updating C cache (64 bytes @ 0x20002E00) -- Read from C cache (4 bytes @ 0x20002E24) - Data: 7D 0F 00 00  returns 0x00 (0002ms, 1260ms total)
T1204 007:889 JLINK_ReadMem (0x00000000, 0x0002 Bytes, ...) -- CPU_ReadMem(4 bytes @ 0x00000004) -- CPU_ReadMem(64 bytes @ 0x08000000) -- Updating C cache (64 bytes @ 0x08000000) -- Read from C cache (2 bytes @ 0x08000000) - Data: 88 46  returns 0x00 (0004ms, 1264ms total)
T1204 007:893 JLINK_ReadMemU32(0xE0001004, 0x0001 Items, ...) -- CPU_ReadMem(4 bytes @ 0xE0001004) - Data: 92 69 44 1E  returns 0x01 (0002ms, 1266ms total)
T1204 007:895 JLINK_ReadMem (0x200045C8, 0x0004 Bytes, ...) -- Read from C cache (4 bytes @ 0x200045C8) - Data: A2 61 F5 3F  returns 0x00 (0000ms, 1266ms total)
T1204 007:896 JLINK_ReadMem (0x200045CC, 0x0004 Bytes, ...) -- Read from C cache (4 bytes @ 0x200045CC) - Data: 30 83 33 40  returns 0x00 (0000ms, 1266ms total)
